#  HZ   S   DB   R     50.0 
! Rohde & Schwarz ZVL 
! 
! 
! 
 1.000000000000000E6    -6.657488452236278E-2  -8.408714450730821E-1  -4.923842405962790E1   6.427415221194760E1  -5.273068958299988E1  -8.687734592869380E1  -3.290602391920987E-2   1.783456478885556E2  
 1.001197889125480E6    -1.777691313280233E-1  -7.795168261051161E-1  -5.704429425115583E1  -6.981762504954634E1  -4.722075998406991E1   7.074428596689831E-1  -2.135101966705606E-1   1.796612109113896E2  
 1.002397213189317E6    -1.090509900934713E-1   6.140569667913324E-1  -5.758236821883960E1  -1.529500902936576E2  -4.952227356659419E1   7.138502638888195E1  -9.217835609884245E-2   1.792544175213218E2  
 1.003597973910407E6     4.950245677776499E-2  -2.405572153068795  -5.834210006747750E1  -1.486936421256606E1  -5.312244401102553E1   8.291811550295461E1  -1.038432082462295E-1   1.791227565106196E2  
 1.004800173009708E6     9.268351025625214E-2  -2.403732746706247E-1  -5.913297384464163E1  -1.581935166423388E2  -5.678287165894657E1  -1.645137239038104E2  -2.056029057819545E-1   1.778625143959933E2  
 1.006003812210237E6    -1.673189872719452E-1  -3.264937466171048E-1  -5.843582441822142E1  -1.011881566415320E2  -5.674432917293080E1  -3.040146671643145E1  -1.298627162151806E-1   1.787507277180457E2  
 1.007208893237075E6    -9.798489883266523E-2  -1.572317754999856  -5.520120982097388E1   1.245964058341734E2  -4.855697104131518E1  -1.311639625942296E2  -2.094365790089436E-1   1.785672420906263E2  
 1.008415417817370E6    -6.267908043376778E-2  -2.081371429646074  -4.897080258947062E1   5.425788888239791E1  -6.038123889288852E1  -1.656859128104933E2  -1.579670458360739E-3   1.794787818421050E2  
 1.009623387680339E6    -4.290624642365080E-3  -7.452505464913970E-1  -5.931090363865739E1   1.110990632091225E2  -6.051880249306838E1  -1.172612630802053E2   2.234314911775107E-2   1.786861099699935E2  
 1.010832804557272E6     4.993823852936800E-2  -1.701034633697293  -4.811475569801421E1  -1.699465884906215E2  -5.303979642894036E1   3.803841009912425E1  -1.780597173034221E-2   1.794704368444551E2  
 1.012043670181529E6     1.106397695391962E-1   1.655664865609818E-1  -5.187497192264587E1   1.556957350156761E2  -5.430047523455237E1  -1.638721562836926E2  -3.558538974550223E-2   1.791332734230919E2  
 1.013255986288550E6     3.398610683813164E-2  -6.356166840959964E-1  -6.002696288145943E1  -1.065105037731170E2  -6.770261900764835E1   6.387284894962053E1   1.120677805936791E-1   1.791484900961360E2  
 1.014469754615853E6    -3.049196835203024E-1  -2.308910843463329  -6.611800751758827E1   1.175066199194574E1  -5.692077196971345E1  -3.607821212046721E1  -9.756117461599609E-2   1.778315212254665E2  
 1.015684976903035E6     1.143877765611347E-1  -7.679107677710431E-1  -4.889101767094353E1  -1.351293499351041E1  -5.551045299231239E1   4.538787435828133E1  -2.707155227328537E-2   1.793445451189326E2  
 1.016901654891780E6    -5.081307022381067E-2  -2.789126673580220E-1  -5.174279233460909E1  -5.866069261162411E1  -4.801005911602045E1   2.907785213663274E1  -8.731163938499993E-2   1.780103923194426E2  
 1.018119790325858E6     1.260592896511294E-1  -1.366777432076298  -5.189191266114610E1  -6.543726122121696E1  -5.639955265577372E1  -4.088868781685365E1  -4.552613030918718E-2   1.791771395778965E2  
 1.019339384951125E6    -2.547813200159270E-1  -1.336788561293037  -5.802647535332356E1  -1.610757558537051E2  -5.018044458145883E1  -6.321823060187609E1  -7.517475413978333E-2   1.789867368774804E2  
 1.020560440515531E6    -1.649290990098725E-1  -7.821806548035202E-1  -5.258947536362941E1   6.644577077152228E1  -5.753611037108359E1   2.271004293096502E1   7.680015489413469E-3   1.789222084982006E2  
 1.021782958769119E6    -9.125358184633017E-2   1.091595429125089  -5.667463657414423E1   1.358855495254547E2  -5.017063860411116E1  -8.864205033746902E1  -2.460564623501123E-2   1.792531516424157E2  
 1.023006941464030E6    -1.054685782927319E-1  -6.782113173285354E-1  -5.232691432758241E1   1.457317938007203E2  -5.902353519253359E1  -1.599277147156292E1   5.562460767544952E-3   1.793173360068838E2  
 1.024232390354500E6    -1.749867838090695E-1  -2.267224694551258  -6.582234324635614E1  -1.434945035243822E2  -5.869432254539149E1   7.013511799895645E1  -1.926813268923667E-2   1.783544080150230E2  
 1.025459307196869E6    -1.029923141480212E-1  -6.528142231139938E-1  -5.094828772236825E1  -1.612265623963087E2  -5.367709314741114E1   1.399072476137711E2  -1.988799042320844E-1   1.793683780900665E2  
 1.026687693749583E6    -1.621281950325028E-1  -9.847540443243594E-1  -5.611198253479945E1   1.473015509949391E2  -6.080746476240719E1   1.318776736883058E2  -1.248953469490778E-1   1.794174723322089E2  
 1.027917551773189E6     3.721797238118410E-2  -6.411864968080007E-2  -6.032299586384627E1   9.327057498984796E1  -6.892221345561168E1   9.313744961771262E1  -1.193209352196622E-1   1.782754243359986E2  
 1.029148883030348E6     1.193139422772080E-3  -1.592483580733568  -5.786424037440934E1   5.001883309400028E1  -6.797001263042110E1  -5.223262666988062E1  -9.165527810301612E-3   1.773150274061931E2  
 1.030381689285830E6    -3.105304494788809E-1   2.567407570827548E-2  -5.582669074799048E1  -8.334759180365397E1  -6.196472886883587E1  -4.541336250835164  -1.103818946608623E-1   1.798142492291422E2  
 1.031615972306519E6     1.132147721837413E-2  -3.504493368744601E-1  -5.242098878434299E1  -1.654389347450765E2  -5.280403959640985E1   1.518598214519386E2   2.028221886769798E-2   1.788687124216169E2  
 1.032851733861416E6    -4.288245304015967E-2   4.815359853039661E-1  -5.834910637465649E1   1.335043829730111E2  -5.585394425579140E1   1.165135121855841E2  -1.265389736142075E-1   1.790450307378395E2  
 1.034088975721642E6     6.939985999705458E-3   1.036669272870293  -5.918938403396993E1  -1.076981446647668E2  -5.264603398537830E1  -5.323421561754737E1  -6.399803048088801E-2   1.795016355825457E2  
 1.035327699660437E6    -2.912760900926547E-1  -8.054414263090896E-2  -6.744088822340198E1  -7.120154426965223E1  -5.266562248911776E1  -7.022872429460016E1  -1.658358232386501E-1   1.786487005202606E2  
 1.036567907453169E6    -2.547177778109992E-1   1.277932564308037  -5.259316905805040E1  -1.093308836134166E2  -5.323766047084512E1  -3.535438768283767E-1  -4.783914239401712E-2   1.793135760875873E2  
 1.037809600877328E6    -2.768577534694794E-2   2.976850080978451E-1  -5.107566069778140E1  -1.851593801547444E1  -5.700900025849616E1   9.360186423959203E1  -2.723623204753209E-2   1.792686972867811E2  
 1.039052781712538E6    -2.510190635249738E-1  -4.718036083609848E-1  -4.666783524452296E1   1.652391289356042E2  -5.900388679424775E1  -1.279729446354400E2  -4.175553335357321E-2   1.789798098641680E2  
 1.040297451740551E6    -1.707304899775853E-1  -8.406641302579506E-1  -5.522339089370470E1  -8.698875957727232E1  -5.747567274889576E1   1.340368275363863E2  -4.910331742207218E-2   1.792453148728472E2  
 1.041543612745255E6    -1.368279520438831E-1  -1.187503446406552  -6.216890173876128E1  -1.467585739285941E2  -5.760915124972597E1   1.309301502878274E1  -3.128872534169509E-2   1.786028263515994E2  
 1.042791266512675E6    -1.522523882791245E-1  -6.909132685213684E-1  -5.730882079290142E1  -1.573692577071402E1  -6.423612054082564E1   8.686904222940818E1  -3.480136887474226E-2   1.787126164377839E2  
 1.044040414830976E6    -1.138205010380555E-2  -3.078144205346240E-2  -5.158325332659791E1  -2.764265943666105E1  -5.363715342379054E1   4.324424153964290E1  -1.238386366904240E-1   1.788309390927977E2  
 1.045291059490464E6    -6.826411276309378E-2   1.922366403991933  -4.834337926623842E1   9.846645135680626  -5.390781570742324E1  -4.887452492968989E1   7.088184067050816E-2   1.782740462428816E2  
 1.046543202283588E6    -6.010347962864027E-2  -8.545100135637272E-1  -5.261076720244427E1  -4.946647931059874E1  -4.926157042647736E1  -1.592633346865565E2  -1.257721868768832E-1   1.794887339535204E2  
 1.047796845004949E6    -8.475712173984172E-2  -1.724361188658861  -5.870449743367368E1  -1.021202506949792E2  -4.887392190043921E1  -6.758696207335044E1   1.590708153166046E-2  -1.796816485388928E2  
 1.049051989451292E6    -2.803478217691295E-1  -1.702903747949710  -4.909290777041101E1  -1.368619357765670E2  -5.567612314335638E1  -1.779754457645480E2  -1.912716813576519E-1   1.789960010740234E2  
 1.050308637421519E6    -1.931824805652484E-1   7.808140389695266E-1  -4.449831034928831E1   3.334140378678266E1  -6.064832084192194E1   7.254988327663139E1  -6.496455331597573E-3   1.787228875265432E2  
 1.051566790716684E6     2.539474642346878E-1  -2.575709445550004  -5.608463766519400E1  -1.213958690503080E2  -5.428231174318163E1  -5.472137089782232E1  -6.389450794453358E-2   1.784712967856391E2  
 1.052826451139999E6     3.248874076284637E-2  -1.845938260975044  -4.935114516250874E1  -7.558659500550937E1  -5.469821374786311E1   1.563636127518665E2   5.487656475819220E-3   1.790094002284120E2  
 1.054087620496837E6     1.461581394306166E-2  -2.977464817592166E-1  -5.430473656372399E1   3.197873251383006E1  -5.834331182259403E1   1.320388854657776E2  -1.287958428542088E-1   1.787148709344540E2  
 1.055350300594733E6    -1.016722643705754E-1   2.709857706248018E-3  -6.215932227840929E1   7.302293103484044E1  -5.066187543040545E1   6.869952912384149E1  -9.075616330379797E-2   1.789466435791366E2  
 1.056614493243387E6    -1.583915185909731E-1  -5.747071965075788E-1  -5.456271261661016E1  -7.799135258079330E1  -7.051812204810668E1   6.490335569670388E1  -9.258161049696036E-2   1.791873033448798E2  
 1.057880200254668E6     1.285673734061180E-1  -1.113443108034700  -6.217518533558160E1  -1.703818894760899E2  -5.078629037172784E1  -1.664790296635529E2  -7.863598308733112E-2   1.786230052592895E2  
 1.059147423442613E6    -8.105092288848423E-2   8.840227097791485E-1  -5.027199786626550E1  -1.042504932104776E2  -7.191010902229920E1   7.594061162883968  -1.158312657996911E-1   1.791414621332934E2  
 1.060416164623435E6    -4.331955828673662E-2   1.286720904460952  -5.780956693189742E1  -1.052858214699307E2  -5.577024814045912E1   4.634407856957974E1  -5.353371872666105E-2   1.785314102272697E2  
 1.061686425615520E6    -1.287169814432986E-1  -9.518471203424616E-1  -7.996661447741165E1   5.465216216213005E1  -4.950300630000926E1   6.625267571300189E1   6.876198995328865E-2   1.779933348691067E2  
 1.062958208239435E6    -2.705695620765088E-2   1.049270579490052  -5.930378260655827E1  -8.420559847407277E1  -4.972842297482378E1   1.297877227507311E1  -5.432402679265157E-2   1.795977121596950E2  
 1.064231514317924E6    -1.663717726993979E-1   1.925853534998865E-1  -6.226329170944359E1   8.835116109868969E1  -6.059709557609496E1   4.845569635974305   1.262808113686389E-2   1.793638829802640E2  
 1.065506345675919E6    -7.378895143624195E-2  -1.421537908532561  -5.557215751394363E1  -9.268545184275607E1  -4.831500924956047E1   2.165921700668009E1  -9.700227058922617E-2   1.784071620579611E2  
 1.066782704140534E6    -8.104013205527086E-2  -9.979260756584479E-1  -5.516097255386839E1  -3.678073112841857E1  -4.960226758084209E1  -1.134133170139637E2  -9.497168365635736E-2   1.792258271137985E2  
 1.068060591541073E6    -1.760830735698005E-1  -2.734844083878347E-1  -6.341377218162639E1   1.438828513968632E2  -4.929982755289436E1  -1.523377139209120E2  -6.998049185020444E-2   1.782087627860194E2  
 1.069340009709034E6    -1.930334814432322E-1  -3.232157015520571E-1  -5.680500126545885E1   5.886330851208000E1  -5.314317432190651E1  -6.268881079813789E1  -3.345805495448096E-2   1.781811359871145E2  
 1.070620960478105E6    -2.030888206277430E-1   1.520028352536117E-2  -5.628450589956577E1  -1.621863884028407E2  -6.068837067787260E1  -5.214844771525814E1  -4.242737839350319E-2   1.788926029257905E2  
 1.071903445684172E6    -9.018429021322574E-2   1.361544087993191E-1  -4.831890759216988E1  -8.043223279266510  -5.614347693178939E1  -5.531348649116192E1  -1.092142371057861E-1   1.789925401954307E2  
 1.073187467165322E6    -9.498552496582705E-2  -2.966272894519039E-1  -6.372053160886821E1  -7.730410772875353  -5.011286474153216E1   1.055955492100586E2  -1.250180453717770E-2   1.792008562792918E2  
 1.074473026761840E6    -5.520450855450514E-2  -8.330273334907452E-1  -5.541970673527518E1  -1.002008099818374E2  -5.556366726677699E1   5.339032231663398E1  -4.326993408708382E-2   1.787480854643957E2  
 1.075760126316220E6     9.358834815079950E-2  -7.460903331823733E-1  -6.661681703092584E1   2.167079751077885E1  -6.663395757707305E1   3.884083948857921E1  -2.417910343521924E-2   1.787222989071993E2  
 1.077048767673159E6    -1.330939817352599E-1  -4.036999297852228E-1  -5.576214034119010E1  -5.033034636648035  -5.352733033932302E1   3.899990848048986E1  -1.142962709490094E-1   1.778523776116065E2  
 1.078338952679566E6    -9.539755036106000E-2  -2.195293736189413E-2  -5.862283858583925E1   1.655342075463118E2  -5.285228168637297E1   8.386294909112709E1  -2.683586672913569E-2   1.788390683824065E2  
 1.079630683184562E6    -5.878002293499009E-2  -1.879062064414996  -5.461076457380217E1   4.127685564002718E1  -4.848211542023443E1  -3.969595973516020E1  -3.025024659685762E-2   1.789860676449958E2  
 1.080923961039483E6    -2.336346007804126E-1  -2.428242560793738E-1  -5.083067871503905E1   1.737008210445489E2  -7.064184677829481E1  -7.582242263680620E1  -3.537376658847710E-2   1.795322505996591E2  
 1.082218788097883E6     1.239024404958783E-3   2.197432775650908E-1  -5.214350383008048E1  -1.128395285845043E1  -5.131799016651964E1   1.464282525610455E2  -9.611389473823900E-2   1.791561045509387E2  
 1.083515166215535E6    -2.374638427355457E-1  -6.548379351287984E-1  -5.170823817214104E1  -1.818577452457354E1  -6.301653509560961E1   7.316303668764236E1  -3.571073470806190E-2   1.787589216829248E2  
 1.084813097250437E6    -1.088579541077033E-1  -8.573148331650430E-1  -5.551707811730979E1   1.393157987151354E2  -5.320374552056475E1  -6.471462330831032E1  -3.956142226934876E-2   1.786341809349608E2  
 1.086112583062812E6     1.702254815431225E-1  -8.843133055166706E-1  -6.063333495406722E1  -8.949024887891041E1  -6.278429324690692E1  -3.290399831993376E1  -8.512189275457853E-2   1.797656521742317E2  
 1.087413625515109E6    -8.473767325214117E-2  -1.346518489138471  -5.058725071919197E1  -5.128101779797369  -5.481161335081706E1  -7.544858482288493E1  -2.487116922890606E-2   1.788150007930132E2  
 1.088716226472013E6    -5.622194715513461E-2  -4.970714181543862E-1  -5.218317587312947E1   5.796340161229851E1  -4.923157726894088E1   1.194483791439358E2  -1.522747953894696E-1   1.782936764615971E2  
 1.090020387800437E6     2.946671693343152E-2  -1.082972051392780  -5.668755543624302E1  -1.732038268102908E2  -5.820689075064220E1  -1.306189315838144E1  -2.811238032972560E-1   1.793352940680005E2  
 1.091326111369534E6    -1.816589691179585E-1  -1.669537729598522E-2  -5.779574764293627E1   3.219958800441502  -5.096271921979290E1   1.285477115164615E2  -7.922531056734165E-2   1.777206889173562E2  
 1.092633399050696E6    -2.070788203548144E-1   5.488216147868882E-1  -4.948542327479684E1  -1.400060079819570E2  -5.689399464742721E1   9.170623621937897E1  -1.205357064467275E-1   1.789286520956093E2  
 1.093942252717555E6    -1.803677833293358E-1   7.757799024734372E-1  -5.788568081150342E1   1.474213297775067E2  -5.498883881851650E1   1.097207823608316E2  -5.235938981376889E-2   1.794495751415152E2  
 1.095252674245988E6    -5.080486347743878E-2   1.163379057812747E-1  -5.787370589128094E1  -2.171536211702259E1  -5.080128794357069E1  -1.192258803046526E2  -4.266406770900977E-2   1.793996890855773E2  
 1.096564665514120E6     4.913589979915414E-3  -5.024717632928628E-1  -5.592355139801990E1   4.718763162341156E1  -5.180524479519995E1  -1.045053580177709E2  -1.431115237356328E-1   1.797691407104156E2  
 1.097878228402325E6     5.222364793430939E-2  -6.440591464125380E-1  -5.164555672091353E1  -2.082510001809548E1  -5.153798672756152E1  -3.640771095105672E1  -1.443043783413436E-1   1.782275630955630E2  
 1.099193364793229E6    -4.348040592565931E-2   3.040159788442423E-2  -7.390873875560395E1  -4.837211438045798  -5.461189032787982E1   1.279953282085219E1  -2.796113305825220E-1   1.790100793727881E2  
 1.100510076571714E6    -6.979532542536440E-2  -1.053787601419853E-1  -6.515129655961174E1   1.768629255952153E2  -4.667473790497730E1   6.445784497600883E1  -2.177918670146197E-2   1.790843201419732E2  
 1.101828365624920E6    -2.104432619485078E-1   5.818144511924609E-1  -5.292587209784265E1   9.826294005012468  -6.664697560069197E1   1.273210924662150E2  -6.136620985714335E-3   1.779988255176447E2  
 1.103148233842247E6    -1.799701196259199E-1  -4.308354020738173E-1  -5.854892567400129E1   1.176403839219193E2  -5.552091784846061E1  -8.836772744102883E1  -2.020345493713160E-1   1.794960600537482E2  
 1.104469683115359E6     4.026624023827498E-2  -7.832131018591783E-1  -7.310108969408259E1   3.052171781054100E1  -4.990146983990984E1   1.755569228637885E2  -4.994819238277857E-2   1.789205152892568E2  
 1.105792715338185E6    -1.236880462058604E-1   6.642605906138963E-1  -5.769524807367395E1   1.146214419653560E2  -5.432508493519391E1   4.615812054585818   2.731903799744509E-2   1.780026656233185E2  
 1.107117332406924E6    -1.321319067265400E-1  -5.660025880920403E-1  -5.678565044267499E1  -6.590047719283476E1  -5.246606923233255E1   1.259453522303848E2  -1.797510461055007E-2   1.784449431804516E2  
 1.108443536220044E6    -5.064080327741265E-2  -1.208547642260514  -5.705580951765844E1  -5.207187675106648E1  -7.128360357261131E1  -1.173142021768637E1  -1.774280355303891E-2   1.788940679790772E2  
 1.109771328678291E6    -2.825804385261229E-1  -3.305891307942920E-1  -5.195496653761834E1  -1.034943678258464E2  -6.440252695405349E1   1.590262154125109E2  -2.129271974711448E-1   1.790351951302053E2  
 1.111100711684684E6     3.862921714686862E-2  -8.458917856234942E-2  -6.241369157766443E1  -8.429143668277202E1  -4.796793876196402E1   1.058034580665323E2  -9.530321356080769E-2   1.781861765007978E2  
 1.112431687144524E6     7.829795853144564E-2  -1.949530142422962E-1  -5.218253660866150E1   9.932932460799891E1  -5.306907852804133E1  -9.194677212862810E1  -2.317662579214155E-1   1.783282340139086E2  
 1.113764256965393E6    -1.999102635421556E-1   4.529490052530826E-1  -5.831792854537458E1  -1.442757188687385E1  -5.302598687421595E1   1.367138921573217E2  -1.044012411575926E-1   1.786437328171281E2  
 1.115098423057160E6     3.949704713381628E-2  -2.466601013537596E-1  -5.229587379032689E1  -1.141184690930998E2  -6.514193766049222E1   1.995308578274776E1  -2.770541375952346E-2   1.792176804206289E2  
 1.116434187331980E6    -2.254569069847967E-1  -7.134424790306395E-1  -5.653890871754523E1   1.692733470483802E2  -4.792959957062808E1   7.847245638270944E1  -1.916464055179493E-1   1.794368807630382E2  
 1.117771551704299E6     3.743683307748702E-2   4.329776880402615E-1  -5.073051266379929E1   1.342650076771549E2  -5.421389872193995E1  -7.121336678793585E1   1.400357510569687E-2   1.782534952629503E2  
 1.119110518090856E6    -3.191812461151249E-1   3.587735243254168E-1  -5.959743705814499E1  -1.446205212986767E2  -5.282276675610683E1   7.895233580762034E1  -2.969749924976749E-1   1.785559975847532E2  
 1.120451088410687E6    -4.040956705668729E-2  -2.077961980878426  -5.411551264456054E1  -7.284036132736649E1  -4.982093416959037E1   1.496821809921763E1   6.081818903171542E-2   1.787010669352468E2  
 1.121793264585126E6    -7.859485463833514E-2   9.912270508825831E-1  -5.815552791759603E1   9.629262901347850  -5.324972363503174E1  -7.022187117020459E1  -5.642811357816658E-2   1.784706448818054E2  
 1.123137048537809E6     1.424851594518236E-1  -1.199735693117882  -5.585914502919179E1  -1.161306809603501E1  -5.360146566177294E1  -8.464670605477859E1  -5.011323288087492E-2   1.780588218277392E2  
