#  HZ   S   DB   R     50.0 
! Rohde & Schwarz ZVL 
! 
! 
! 
 1.000000000000000E6    -2.452810725162379E-2  -3.452818726575275E-1  -7.857086406793464E1  -7.970512595523418E1  -7.380324036317232E1  -2.703744988273284E1   1.036418652689063E-3  -7.453625197452749E-1  
 1.001197889125480E6    -7.715035847055931E-3  -3.628016918677001E-1  -8.328607319989058E1   7.542998886967942E1  -7.782319133619308E1   1.501776382608250E2   5.651122796466615E-3  -3.703884895171989E-1  
 1.002397213189317E6     7.887160498926219E-4  -2.368237263555071E-1  -7.295339794544746E1   1.175967140084464E1  -7.048589924183705E1   5.338200825263813E1  -4.391007009106306E-3  -6.470453579531689E-1  
 1.003597973910407E6    -2.948564554822143E-3  -4.268266659825732E-1  -7.406147339275314E1   6.284658084057561E1  -7.615373231210558E1   1.429997593730936E2  -1.366978723771409E-2  -8.252305109632736E-1  
 1.004800173009708E6    -3.669668110804920E-2  -2.799516762768380E-1  -7.726421862942446E1  -2.948751568292159E1  -8.334809965832247E1  -1.302062522172940E2   1.246215177345965E-2  -5.691159028313044E-1  
 1.006003812210237E6    -2.580568433056583E-2  -4.330818787584281E-1  -7.878929693345110E1  -1.673995002912584E2  -7.598173084644529E1   5.792537570920404E1   3.325457791872075E-2  -4.020740825284104E-1  
 1.007208893237075E6     3.275883521553880E-3  -3.891619403737133E-1  -7.053237164219114E1  -1.500600345920444E2  -7.242009553567742E1   5.278993495839888E1   2.314952285388086E-2  -5.726537030430037E-1  
 1.008415417817370E6    -1.857934796342374E-2  -5.010064811225954E-1  -7.835809195107362E1   1.186979447480000E2  -7.873960602064189E1  -1.659209644069929E2   2.358999554638996E-2  -8.632839927108728E-1  
 1.009623387680339E6    -3.581429821747519E-2  -3.292009837897510E-1  -7.849492858220431E1   6.289697165652164E1  -7.535491669495669E1  -3.214792331678826E1   2.151724345946491E-2  -6.924590433400083E-1  
 1.010832804557272E6    -1.949300523881026E-3  -3.670564419298916E-1  -7.318812298457851E1   6.733099416025520E1  -7.447974593839524E1   2.909850375543631E1   4.931190019911653E-3  -6.795200746920749E-1  
 1.012043670181529E6    -4.441586526325311E-3  -2.651081203538749E-1  -7.925455538154013E1  -1.201261340632100E2  -7.279899548825628E1  -1.155015540679206E1   1.913976283959907E-2  -6.650648334488516E-1  
 1.013255986288550E6     3.386123262731362E-3  -3.371859825970151E-1  -6.779035925998618E1  -1.174048633150242E2  -7.729966281267438E1  -1.787268148055900E2   2.768350725209824E-3  -4.982796581198623E-1  
 1.014469754615853E6    -1.199708776421708E-2  -2.084301251414155E-1  -6.718924265938524E1  -1.148933338781860E2  -7.561035181429499E1  -1.779920985147737E1   9.771669583595771E-3  -6.338579964902523E-1  
 1.015684976903035E6    -4.808078613760878E-3  -4.220113666514789E-1  -8.111450552879359E1   7.949922580510756E1  -7.130274932736485E1   1.498768953515751E2  -1.808371193100060E-2  -7.061328102364430E-1  
 1.016901654891780E6    -3.143618625846116E-2  -5.206907833176588E-1  -8.367084239889736E1   4.874137312729038E1  -7.246529639084950E1   4.997525990813137E1   1.920948726148504E-2  -5.553862690008643E-1  
 1.018119790325858E6     7.313997831619112E-3  -2.432792239841408E-1  -7.767296757551361E1   7.271032744943321E1  -7.258222363075316E1   2.386990665769956E1   1.349223440552057E-2  -5.180940070239491E-1  
 1.019339384951125E6    -3.402990063413074E-3  -3.985600937172631E-1  -6.920122931207160E1  -1.083229513978121E2  -8.022813069087843E1   1.798902165864877E1   1.464303426795841E-2  -5.619000105910281E-1  
 1.020560440515531E6     1.898031187823578E-2  -2.579552249867024E-1  -7.205047492170363E1  -6.816901053166666E1  -7.051043493866030E1   1.080626865262584E2   2.856875777358778E-3  -6.891532432122234E-1  
 1.021782958769119E6    -3.295419216239541E-4  -3.997985213816417E-1  -7.183017748004967E1   7.435112181800253E1  -6.934852557106413E1   1.080312421631010E2   2.451946070976004E-2  -6.146166387834436E-1  
 1.023006941464030E6    -1.425812896537134E-2  -4.194967149052111E-1  -7.779848615913627E1   1.497279328661822E2  -7.450313684050929E1   1.616782013156482E2   1.440153459414955E-2  -7.009805730609174E-1  
 1.024232390354500E6     6.483324157612060E-3  -2.740326377768113E-1  -7.231442639241112E1   5.984058942529121E1  -7.113078080744194E1  -1.788999505548766E2   1.940337944097641E-2  -5.754092949841433E-1  
 1.025459307196869E6    -3.132068751957286E-3  -4.509675338658377E-1  -8.559768130703451E1   1.593527228294680E2  -7.783054229941871E1  -5.242475537948808E1   5.365098533600538E-3  -5.867229844868273E-1  
 1.026687693749583E6    -2.193947210627326E-2  -2.829902375625591E-1  -7.836550413560377E1   6.931809481342162E1  -8.852782336815157E1   1.239114110257693E1   1.617255797839397E-2  -7.978105234360563E-1  
 1.027917551773189E6    -1.236995678402007E-2  -2.982815636565896E-1  -7.546191591856501E1  -1.646438157446740E2  -6.907733882585723E1   2.810798332369818E1   2.399828704758039E-2  -5.079176837891809E-1  
 1.029148883030348E6     1.459076030831598E-2  -2.273813616018507E-1  -7.354323881953162E1  -6.144857221467571E1  -8.146910250682112E1   1.787750819664222E2   2.606719579678000E-2  -7.262014577568496E-1  
 1.030381689285830E6    -1.945798448191975E-2  -3.257343210662889E-1  -7.896489607671971E1   3.269652534391511E1  -7.213929995476910E1  -1.541714558410677E2  -2.468928599347711E-2  -5.567887533306400E-1  
 1.031615972306519E6    -4.557821263255631E-2  -3.397838698347543E-1  -8.029315717312979E1  -5.552894620120027E1  -7.427872715220919E1  -1.416878521898962E2   3.802035600681585E-3  -5.985148595544398E-1  
 1.032851733861416E6    -1.219792458215390E-2  -1.431771212207803E-1  -7.489614897649184E1   1.119010647430050E2  -7.585474011882681E1   7.987147177771801   1.834354156980535E-2  -7.394631237416465E-1  
 1.034088975721642E6    -1.274208388728976E-2  -3.804735017967664E-1  -8.547041192886846E1   6.529413206241118E1  -7.005268016502259E1   3.433893049632675E1   1.433195643899715E-2  -5.471254166236591E-1  
 1.035327699660437E6    -4.127311045297950E-3  -4.166979019573615E-1  -8.078281702455965E1   7.724431388387286E1  -7.708854496588292E1  -6.084053248446555E1  -3.502576784837028E-3  -6.047168598690484E-1  
 1.036567907453169E6    -1.165474336857415E-2  -2.483316204188749E-1  -7.777917142468350E1   3.379315638724865  -8.024819793589983E1   1.139647263365909E2  -1.465719671570701E-3  -7.076063058652593E-1  
 1.037809600877328E6    -2.600808803077151E-2  -3.769118664579271E-1  -7.806183538613590E1  -9.245085671352307E1  -6.838649431493148E1  -1.992476148575524E1   1.040515431980531E-2  -5.949565543348149E-1  
 1.039052781712538E6    -2.707397181702022E-3  -1.145132308358061E-1  -6.870496740093020E1   4.722240880933170E1  -7.538768327634136E1   4.180968996971843E1   9.577366870689591E-4  -6.617469617271524E-1  
 1.040297451740551E6    -1.138878161199480E-2  -4.219640732069201E-1  -7.235024735691097E1  -3.811760748739128E1  -7.571196098264480E1   8.093472245277501E1   1.717410104098134E-2  -6.260851480019473E-1  
 1.041543612745255E6    -2.405353819872596E-3  -2.445242549777027E-1  -7.188420449924759E1  -1.469516168467133E2  -7.128714365781039E1  -3.213557791237927   7.185775558797932E-3  -6.249000585260820E-1  
 1.042791266512675E6    -1.413353471791299E-2  -4.018909623301956E-1  -7.731302674039748E1   8.755085805832125E1  -7.374716890180513E1  -6.492644869572092E1   6.375825149414601E-4  -6.651617969505357E-1  
 1.044040414830976E6    -1.615533502728058E-2  -2.152694746122715E-1  -6.998234815656578E1   1.275105940272207E2  -7.499891181315364E1   1.869245058367676E1   1.439115734285369E-2  -6.510745510494795E-1  
 1.045291059490464E6    -2.502477469527359E-2  -9.818269687844432E-2  -7.571855065255248E1   1.017914060174258E2  -8.462753576743742E1  -8.767455002719481E1  -3.557422093549262E-3  -6.916016722337242E-1  
 1.046543202283588E6     1.002487483287133E-2  -3.641372438035933E-1  -6.993371121993327E1   1.224830676254624E2  -7.477850674881609E1   1.601536335068556E2  -1.203242936483457E-2  -5.891568291173809E-1  
 1.047796845004949E6    -2.051233966819585E-2  -4.667830093652284E-1  -8.002073393201221E1  -2.957621583467255E1  -7.350491318374219E1   5.359017502227773E1  -2.250822792820363E-2  -4.849678861760519E-1  
 1.049051989451292E6    -1.070710995324464E-2  -2.924643591589636E-1  -7.789505932634646E1  -5.782058912413201E1  -7.270228128369149E1   2.108575935506137E1   2.073080951548675E-2  -4.325920571278695E-1  
 1.050308637421519E6     2.846798020815011E-2  -1.202245343704067E-1  -7.366708086783083E1  -4.495653714199987E1  -7.187434671652476E1   1.279529963825316E2   2.875512647464623E-2  -6.615248959566771E-1  
 1.051566790716684E6     9.158466961012404E-3  -1.702754709447827E-1  -7.169326569680443E1  -1.121058748915835E2  -8.712149291715066E1  -1.494649650316557   2.165655669692027E-2  -6.546737610882187E-1  
 1.052826451139999E6    -1.867490006514762E-2  -2.786952959850169E-1  -7.757597971451561E1   1.740616085361303E2  -7.704759783689559E1  -1.675685813480463   3.445285069796573E-2  -5.249065441969240E-1  
 1.054087620496837E6    -1.217144294539737E-2  -2.839603544245490E-1  -7.479489042275353E1  -1.500502123296643E2  -7.048593883577621E1  -2.211673846664210E1   2.016323183223117E-4  -5.748955868472234E-1  
 1.055350300594733E6    -1.298673954156439E-2  -5.089401559561831E-1  -7.592969999794902E1   1.749266285123745E2  -7.906203403191275E1  -1.804641409155146E1   7.193232767696724E-3  -6.042652706626005E-1  
 1.056614493243387E6     1.637992206440977E-2  -2.183765886204373E-1  -7.587492813130547E1  -1.327443496087052E2  -7.285207175776510E1   7.518140198517358E1   2.014323055167210E-2  -5.828263827483269E-1  
 1.057880200254668E6     2.741824632418130E-2  -3.988230048273992E-1  -7.608901738136375E1  -6.139762189504970E1  -8.819824282094660E1  -1.171278087505995E2  -7.742568655585147E-3  -7.077505109545000E-1  
 1.059147423442613E6    -3.336311699577146E-2  -4.531620915357638E-1  -7.936331627959260E1  -1.125930105697672E2  -7.951368572460065E1   1.287211254641002E2  -1.961100739129741E-2  -6.199225307433344E-1  
 1.060416164623435E6    -2.288415170801793E-2  -2.898132052278919E-1  -7.295820434879124E1   2.713842469432067E1  -7.018043921199408E1   1.729598382272480E2   2.306963553712114E-2  -5.755230089409615E-1  
 1.061686425615520E6    -1.210399856626250E-2  -1.385780637236162E-1  -7.512635669956524E1   1.622196720506944E2  -7.229844512713271E1   1.523176824170415E2  -4.669658679352462E-3  -5.760954289147273E-1  
 1.062958208239435E6    -2.314374491513266E-2  -1.546617026162541E-1  -8.786319610251491E1  -3.333692250552104  -7.219154294912036E1  -2.878716565261911E1  -6.299718824598155E-3  -6.577001870565791E-1  
 1.064231514317924E6    -2.827686876040083E-2  -1.548195193610204E-1  -8.078054997763796E1   6.957537606827846E1  -7.656487477537630E1   1.795831819336717E2   1.739101289531083E-2  -6.335275047019831E-1  
 1.065506345675919E6    -2.678267088463282E-2  -2.799686824982496E-1  -7.323246588959978E1  -1.530919714667921E2  -7.706558903548651E1  -1.500602253938819E2   1.668720480800765E-2  -5.035389478087429E-1  
 1.066782704140534E6    -5.261041052232896E-3  -3.492683428203166E-1  -9.927364394807619E1   5.026991163314036E1  -7.537046013665312E1   3.716400519840666E1   8.410153034756862E-3  -7.862147878903333E-1  
 1.068060591541073E6    -3.861749524281878E-3  -2.882772282994242E-1  -7.776388391426542E1   3.943766874063722E1  -7.434002212193799E1  -3.693654734717054E1   9.130191765356352E-3  -5.203552301399824E-1  
 1.069340009709034E6    -1.915533892057173E-2  -3.175158653333032E-1  -7.136080042926984E1  -1.100391585393414E1  -7.172382812988194E1   1.329089748429152E2   1.951952472463926E-2  -7.155640940920474E-1  
 1.070620960478105E6    -9.897042073668805E-3  -2.467936759492601E-1  -8.026712022821434E1   7.269509642787686E1  -7.178402988194581E1  -1.399219442152226E2   2.773595108059642E-2  -6.056124114078729E-1  
 1.071903445684172E6     6.715515232430098E-3  -3.011416237212642E-1  -8.590794585909865E1   7.692894847199044  -7.141439015889256E1  -1.375351758795508E2   3.706167883048328E-3  -7.025603246393184E-1  
 1.073187467165322E6    -3.194192486085615E-2  -2.636139140821890E-1  -7.232507155673073E1   5.879272162987934E1  -8.078329170165260E1   1.204529648090141E2  -2.969550798479879E-3  -5.994844753245997E-1  
 1.074473026761840E6    -5.052799452632835E-4  -4.479738607630150E-1  -8.629539147258443E1   9.351828296285007E1  -7.365996376977225E1  -1.612240412766466E2   9.794394908319758E-3  -5.118686718997195E-1  
 1.075760126316220E6    -4.352499878914725E-3  -3.030125694968815E-1  -7.363308162008656E1  -1.208873341009277E2  -7.337977060180295E1  -1.574651141299862E2   2.910778143359337E-2  -6.840925033077840E-1  
 1.077048767673159E6    -1.020365666198246E-2  -2.864954548209756E-1  -7.250228732910190E1   1.047443736514956E2  -6.976683397692464E1   8.271563467458415E1  -8.621691564676992E-3  -5.884786661450668E-1  
 1.078338952679566E6     2.912519078326974E-3  -3.518268985392151E-1  -7.374485547695078E1   9.733809249574094E1  -7.014769526828204E1  -1.555373927661595E2  -1.044017417074917E-2  -4.824349485159783E-1  
 1.079630683184562E6     7.444892409007140E-3  -3.556508187282653E-1  -7.610190506319187E1   8.618396443987842E1  -7.343981027717733E1  -6.022762422361560E1   3.932367601099903E-3  -6.072157689490955E-1  
 1.080923961039483E6    -1.581466289597537E-3  -4.157605401766714E-1  -7.719083544658976E1  -1.343217085328934E2  -8.568382541634219E1   1.783743090149387E2   7.618707955171308E-3  -7.911395579911026E-1  
 1.082218788097883E6    -5.502436203424934E-4  -3.411294949617026E-1  -7.165554582042391E1  -2.822942723971250E1  -7.354779386509550E1  -9.608304929252462E1   8.553748958193870E-3  -5.259963028262755E-1  
 1.083515166215535E6    -1.835146552798333E-2  -2.768997060261450E-1  -7.653771398899278E1   1.918901833855604E1  -7.533895477930257E1   1.378006019963468E2   1.579500673023775E-2  -6.494652241166995E-1  
 1.084813097250437E6    -6.441376498570594E-3  -2.931408198804014E-1  -7.571649975274764E1   1.474528955803530E2  -7.568621618415847E1   5.589193183928180E1   1.326200832388290E-2  -7.157361590260462E-1  
 1.086112583062812E6    -1.691046260016979E-4  -4.433899741255964E-1  -7.006023597174485E1  -5.938394364712021E1  -7.326740686639165E1   1.554199518424071E2  -5.565549498252454E-3  -6.308678032715576E-1  
 1.087413625515109E6     1.006292811946990E-2  -3.415848666409658E-1  -7.375724662716108E1  -2.149590363202849E1  -7.073415693909007E1  -1.613037576878113E2   2.563548450740863E-2  -7.377210303234898E-1  
 1.088716226472013E6    -1.549547065658781E-2  -2.172382767449045E-1  -7.469959559404369E1   5.824616877517453E1  -7.207467324063539E1   5.381689118451912E1   3.377010879932252E-3  -6.867079822572625E-1  
 1.090020387800437E6    -2.028656821894711E-2  -3.421827651735546E-1  -7.776761827567346E1   6.461553198673737E1  -7.255501514211893E1   1.279590067552306E2   2.358052091553368E-3  -7.801797208264457E-1  
 1.091326111369534E6    -1.603674572692789E-2  -3.793459285376301E-1  -7.085292689711217E1   9.039920049762015E-1  -7.901045918360360E1   8.118227083164030E1  -1.240469874441655E-4  -5.613742393271092E-1  
 1.092633399050696E6    -4.079287114680726E-3  -3.635370346657061E-1  -7.342703085558254E1   5.028007495666014E1  -7.365233019024127E1  -1.880381964029386E1   2.309809658397420E-2  -6.903328771538669E-1  
 1.093942252717555E6    -4.851585250907680E-3  -3.502219831474455E-1  -7.756651005728409E1  -2.737611734893583E1  -7.693766563726922E1  -1.536551980240058E2   1.381524470331383E-2  -5.156510166379554E-1  
 1.095252674245988E6    -9.871146387634481E-3  -4.153302969894934E-1  -7.581077421203230E1   1.615910132193394E2  -7.506812145671947E1   9.748303844792075E1  -2.804084673724496E-3  -5.936959474847988E-1  
 1.096564665514120E6     7.517288585769338E-4  -2.774037158794186E-1  -7.232966474672401E1   1.837314243330140E1  -7.092632561992814E1   8.625393916541606E1  -9.097993382464659E-3  -5.959376372621570E-1  
 1.097878228402325E6     8.923529456900113E-3  -4.927457540619606E-1  -6.756199127153292E1   1.023075074927590E2  -7.348481614487832E1  -1.294415812098393E2   7.992564099635951E-3  -5.723463152840066E-1  
 1.099193364793229E6    -1.076607419737597E-3  -2.705473806396940E-1  -7.172706672803409E1   1.179787695200099E2  -8.373214556765043E1  -7.381268002454740E1  -8.335364397976114E-3  -6.447398538997764E-1  
 1.100510076571714E6     5.576308617503191E-3  -1.664080147657355E-1  -7.523207962004690E1   2.422337798586094E1  -7.470319105417848E1   1.404623558547614E2  -5.406545787398733E-3  -5.313553183155103E-1  
 1.101828365624920E6    -8.836865957826344E-3  -3.590160048184087E-1  -8.681307550384386E1   5.897141034465758E1  -7.582403997160161E1  -1.152944204982416E1  -8.009914403931987E-3  -5.214710704909517E-1  
 1.103148233842247E6     1.293327554281561E-2  -3.278204874356259E-1  -7.977127366099003E1  -1.899338363385152E1  -7.442358454756071E1   1.751975263305182E2  -1.153418612190419E-2  -7.661965166915290E-1  
 1.104469683115359E6     2.096996139217680E-3  -4.255661826410658E-1  -8.345046855433881E1  -7.007048362721046E1  -8.170158905798962E1   4.281165416514694E1   2.518381672265254E-2  -6.568921143358212E-1  
 1.105792715338185E6    -1.242644902866161E-2  -3.623366547443017E-1  -7.337747436106028E1  -6.514329516982259E1  -8.310623792019803E1  -2.287588417069686E1  -1.425220295981203E-3  -7.235857702343095E-1  
 1.107117332406924E6    -1.566129281396837E-2  -2.665648689110203E-1  -6.834883182805976E1   1.776239633666366E2  -7.013147568682793E1   8.321267931004920E1   1.400945162628812E-2  -5.820267935243849E-1  
 1.108443536220044E6    -1.750826065304067E-2  -3.847667126502037E-1  -7.101331788539203E1  -1.562029199421524E2  -7.624280938126117E1   6.241721272605468E1  -1.136174762869659E-2  -6.536245237869776E-1  
 1.109771328678291E6    -1.350496749405953E-2  -3.084434732440761E-1  -7.617566201981173E1   1.274091451722791E2  -8.075015682052633E1  -1.174728832524303E2   1.268132628234663E-2  -6.645693162166131E-1  
 1.111100711684684E6    -1.595318111651985E-2  -4.982454897745208E-1  -7.588820098401554E1  -4.953378078895528E1  -8.342233395624793E1  -2.055885903869946E1  -1.768313777938758E-2  -7.181808371346590E-1  
 1.112431687144524E6    -1.611651501101837E-3  -2.667727497188596E-1  -7.099066442204570E1  -5.036818387405085E1  -8.092918988460265E1  -1.416139508730163E2   2.381044556478385E-3  -5.166690107046308E-1  
 1.113764256965393E6    -5.042446496743359E-3  -1.699340476018881E-1  -7.776630395867004E1   5.524803277935675E1  -7.399564756398407E1   4.741454530778270E1  -1.599602555695177E-2  -5.603958775570190E-1  
 1.115098423057160E6    -2.382840466172507E-2  -2.701070856171929E-1  -7.406357857982668E1   1.348701882849705E2  -7.448587993354335E1   1.579400250799687E2  -1.099667764334222E-2  -6.592902954704130E-1  
 1.116434187331980E6    -5.982676494057211E-3  -1.925516776730245E-1  -9.247940061819851E1   6.733977893669041E1  -7.172214755629895E1   1.073449318841206E2   1.086047735591307E-2  -7.142808845343768E-1  
 1.117771551704299E6    -1.239750337151421E-2  -1.718467646304317E-1  -7.606504203266510E1   1.223512533363155E2  -7.304955997870981E1  -4.454367142550548E1   2.346579605821104E-2  -6.460882818044441E-1  
 1.119110518090856E6    -2.600605490792677E-2  -3.675744789472917E-1  -7.267010663928262E1   2.894393268687111E1  -7.376345854991367E1   1.454937026372329E2   9.403261531233709E-3  -4.852158166858265E-1  
 1.120451088410687E6    -4.971839650309173E-3  -2.931386284745234E-1  -7.293174847312092E1   5.073620342427415E1  -8.313637957480846E1  -3.601685124068543E1  -9.383137146885809E-3  -6.443576484728849E-1  
 1.121793264585126E6     2.753358266712175E-4  -3.176865457639118E-1  -7.455610396749410E1   1.695843260974652E2  -7.590574730888601E1  -2.359242031458366E1   3.861369738317851E-3  -5.544484193331566E-1  
