#  HZ   S   DB   R     50.0 
! Rohde & Schwarz ZVL 
! 
! 
! 
 1.000000000000000E7    -7.943065950697044E-2   1.667174101838521E2  -2.935039211665204E1   7.741566900713968E1  -2.934445031047613E1   7.796395178883637E1  -1.618200708037720E-1   1.721181098010808E2  
 1.000749401009202E7    -1.297329073922769E-1   1.723092523719570E2  -2.900977501993472E1   7.992654544496116E1  -2.895535611919250E1   7.523865836181140E1  -8.811239227620611E-2   1.688470158502578E2  
 1.001499363620277E7    -1.302469470010668E-1   1.698868695420241E2  -2.912494733181972E1   7.817197384126017E1  -2.920036946670151E1   7.898632432089029E1  -2.065358259253277E-1   1.701905435123123E2  
 1.002249888254090E7    -1.688109189452503E-1   1.716075010514937E2  -2.929358723005941E1   7.871219719598071E1  -2.902226213213777E1   7.888925121181268E1  -1.019660796647345E-1   1.697447137179676E2  
 1.003000975331820E7    -1.259711060831479E-1   1.703193466786486E2  -2.911155184833464E1   7.773521049468975E1  -2.924401673448959E1   7.809842318343932E1  -1.074716161402304E-1   1.694750234841316E2  
 1.003752625274965E7    -1.576283265070283E-1   1.680068397231796E2  -2.919362147254044E1   7.805054118496437E1  -2.920713869301896E1   7.759529301814577E1  -9.842479508551244E-2   1.689034231391182E2  
 1.004504838505336E7    -3.311679634021946E-2   1.690095191651336E2  -2.903544592145599E1   7.765353677097205E1  -2.918227267230056E1   7.681616470000101E1  -1.893848792305326E-1   1.667456181066577E2  
 1.005257615445060E7    -1.316702039323444E-1   1.702646849994884E2  -2.910251840443941E1   7.901408750931708E1  -2.910544998256599E1   7.940821555040340E1  -1.596220607412950E-1   1.699781362390025E2  
 1.006010956516583E7    -6.867236662656565E-2   1.729864282587419E2  -2.925463255100037E1   8.072450115531719E1  -2.912220763399809E1   7.852720442670058E1  -2.467143264605944E-2   1.693684282210243E2  
 1.006764862142665E7    -1.274978608033453E-1   1.721382232671776E2  -2.922538321451352E1   8.030178823292444E1  -2.909870272438504E1   8.110014307076760E1  -9.373477383014645E-2   1.716681051892476E2  
 1.007519332746385E7    -2.037580105590475E-2   1.706396447990526E2  -2.906427334981960E1   7.915624403547182E1  -2.904028122844865E1   7.754751113363740E1  -1.076125366527389E-1   1.680601969718744E2  
 1.008274368751136E7    -1.517134946917037E-1   1.712772060565636E2  -2.913876443862614E1   7.790485648425252E1  -2.916707844933008E1   8.030993469624696E1  -1.245323680634884E-1   1.711696797878872E2  
 1.009029970580631E7    -1.162531056508801E-1   1.694996673237364E2  -2.912797980144218E1   7.835304391873399E1  -2.922812605788479E1   7.840153419330954E1  -1.081137695595451E-1   1.720930819395465E2  
 1.009786138658899E7    -1.482562142498578E-1   1.711962449986869E2  -2.904938370123900E1   7.935013311190464E1  -2.905041613806884E1   7.705002048839351E1  -1.932017003003255E-1   1.680451838614121E2  
 1.010542873410289E7    -1.051495766817776E-1   1.720604361279713E2  -2.918247201655003E1   7.935495835063698E1  -2.911188231763628E1   7.784555235293198E1  -1.150382793180380E-1   1.707667302774374E2  
 1.011300175259465E7    -6.907293753208084E-2   1.718846995375064E2  -2.914779350673109E1   7.905504112496202E1  -2.927147460983531E1   7.838549034683452E1  -6.942933929519497E-2   1.682811161752423E2  
 1.012058044631411E7    -4.303442802242357E-2   1.719214763185275E2  -2.921137851185295E1   7.881203970913626E1  -2.906565552674679E1   8.080510642508303E1  -1.207588342844040E-1   1.712321967829513E2  
 1.012816481951429E7    -1.294885706932231E-1   1.699402967800103E2  -2.916401141326116E1   7.815787576354920E1  -2.907137926715562E1   7.814482672880725E1  -9.463024189540796E-2   1.693122955489038E2  
 1.013575487645140E7    -8.498561472228834E-2   1.704009572407760E2  -2.907832872483061E1   8.027285356076803E1  -2.898079358757192E1   7.919309239787829E1  -8.217868928629085E-2   1.721203438917669E2  
 1.014335062138484E7    -5.315306670588175E-2   1.695104758391903E2  -2.895766534219854E1   7.731992131965242E1  -2.909285640371343E1   7.898355295565456E1  -7.800114589606026E-2   1.706836063244051E2  
 1.015095205857720E7    -7.659186057022202E-2   1.679447493954731E2  -2.899008178652040E1   7.686228620343152E1  -2.913975955370100E1   7.729639080052387E1  -5.328732850169028E-2   1.689807014511053E2  
 1.015855919229426E7    -1.178400721347854E-1   1.705837524887915E2  -2.913076280725883E1   7.785595335784664E1  -2.904202865849980E1   8.070689500509947E1  -5.931461508695640E-2   1.710305468139929E2  
 1.016617202680501E7    -1.435915286074327E-1   1.672577667495018E2  -2.882375459086854E1   7.703770486504844E1  -2.882273697340876E1   8.003019545303854E1   1.126601558055985E-1   1.686127811247563E2  
 1.017379056638162E7    -1.134772097135068E-1   1.714771010516620E2  -2.924388095745755E1   7.776654136547653E1  -2.902589573722421E1   7.835924670490019E1  -1.221542977337060E-1   1.690500034423472E2  
 1.018141481529949E7    -6.907675234827056E-3   1.697143169855761E2  -2.884945848216836E1   7.996044899919981E1  -2.913585046811465E1   7.626506611128997E1  -1.121865357007267E-1   1.672791532072901E2  
 1.018904477783718E7    -2.042768312999623E-1   1.669240131073877E2  -2.910635608149155E1   7.817442999348204E1  -2.908384071034592E1   7.660642851225622E1  -1.909128987845705E-1   1.710094072403817E2  
 1.019668045827650E7    -1.541710035901695E-1   1.677406754088605E2  -2.891276393759486E1   7.718510047608437E1  -2.914803472119758E1   7.706201344492574E1  -1.946462103968945E-1   1.686509485502420E2  
 1.020432186090244E7    -1.453419610163344E-1   1.699390757200424E2  -2.896440904116064E1   7.983530370230682E1  -2.907469502653169E1   7.523455157988157E1  -1.461485596554356E-1   1.688498638927181E2  
 1.021196899000323E7    -2.360280675746407E-2   1.714320232561866E2  -2.898853030959762E1   7.871512438119916E1  -2.903864095508446E1   7.850152645812638E1  -2.160464523848791E-1   1.682814548232103E2  
 1.021962184987028E7    -1.358616204534180E-1   1.674095677239505E2  -2.906724262784043E1   7.586323978191692E1  -2.890013833776163E1   7.868837675916400E1  -1.095218175407993E-1   1.719994394863790E2  
 1.022728044479824E7    -1.432738535463491E-1   1.666336478107223E2  -2.885838905750298E1   7.628640047629122E1  -2.892014068858965E1   7.517275300422851E1  -1.843652995997311E-1   1.666639124802735E2  
 1.023494477908497E7    -6.969197965327297E-2   1.694720736895129E2  -2.906749358995047E1   7.773360980967827E1  -2.881665220710837E1   7.840736875485743E1  -1.518019452887920E-1   1.682720749199910E2  
 1.024261485703155E7    -7.652401265894397E-2   1.696122787585133E2  -2.893740900684637E1   7.781469995630519E1  -2.888423016260193E1   7.844854298400814E1  -1.834367034978311E-1   1.696569760527439E2  
 1.025029068294228E7    -1.513075991328621E-1   1.700072092314650E2  -2.899376018620703E1   7.637739049589759E1  -2.888551799606332E1   7.848789291272595E1  -8.424780560691308E-2   1.703564217457385E2  
 1.025797226112469E7    -6.424344090297957E-2   1.664301204540358E2  -2.906292911751467E1   7.694233453664862E1  -2.888152059799896E1   8.065158807940132E1  -2.361977289334268E-2   1.724098274578592E2  
 1.026565959588955E7    -9.499286111133215E-2   1.724055203223583E2  -2.878088356320670E1   7.780092410151677E1  -2.904442075054712E1   7.851922268433971E1  -1.674811944982351E-1   1.703678778267638E2  
 1.027335269155083E7    -1.469381588908694E-1   1.719162508728668E2  -2.896527721835713E1   7.932753859869864E1  -2.903569027950269E1   7.642041623986462E1  -8.433614739288727E-2   1.681365208852446E2  
 1.028105155242577E7    -1.172346869482185E-1   1.692405822278545E2  -2.899776465738777E1   7.770919769767583E1  -2.900945389798554E1   7.814198184731069E1  -1.189399151494638E-1   1.676969642986236E2  
 1.028875618283482E7    -3.238325628961764E-2   1.710743040775659E2  -2.910521481043241E1   7.884286700732648E1  -2.909496749995259E1   7.871650247375345E1   4.023074238753446E-2   1.690701434697892E2  
 1.029646658710168E7    -1.171985348276485E-2   1.682347920309688E2  -2.895424970115912E1   7.856428980097711E1  -2.889579345207800E1   7.620415781552384E1  -9.835713726009519E-2   1.671658100282372E2  
 1.030418276955327E7    -4.717660193256911E-2   1.692944281968210E2  -2.895940402338511E1   7.834729380164140E1  -2.889135356824004E1   7.822064065694089E1  -1.822913887434254E-1   1.674646842788827E2  
 1.031190473451978E7    -7.152798702194080E-2   1.706638342766382E2  -2.896723474318257E1   7.786714852802091E1  -2.888084202824484E1   7.913977645864097E1  -1.685684858837906E-1   1.691942602488234E2  
 1.031963248633463E7    -6.044680456676996E-2   1.697472829697943E2  -2.885165275199672E1   7.685864799765497E1  -2.887851302567465E1   7.567247040821600E1  -9.097655166633475E-2   1.677259995825289E2  
 1.032736602933448E7    -1.819048567666956E-1   1.671698656022433E2  -2.893962398489175E1   7.709354127414521E1  -2.895669561433891E1   7.679130202585822E1  -8.134634446411260E-2   1.668555080413157E2  
 1.033510536785927E7    -1.464968686123060E-1   1.680719051864645E2  -2.900662262401199E1   7.698929391355131E1  -2.890837263328093E1   7.849950168284697E1  -1.267544091975332E-1   1.694677522640842E2  
 1.034285050625216E7    -1.515233268239862E-1   1.696565977114206E2  -2.896604664502355E1   7.793035745509380E1  -2.901276928545632E1   7.848087658122216E1  -9.999230969047096E-2   1.687274300885767E2  
 1.035060144885957E7    -9.564349151732715E-2   1.683424858846044E2  -2.892281232829773E1   7.567214812373281E1  -2.894523898938182E1   7.828415073957069E1  -1.130909256464084E-1   1.691730055072378E2  
 1.035835820003120E7    -1.099968001496179E-1   1.716380616307592E2  -2.885885660497655E1   7.764445830178232E1  -2.877916352112788E1   8.021751657045473E1  -1.778421319137052E-2   1.696838806995112E2  
 1.036612076411999E7    -2.372665610085696E-2   1.680038540496424E2  -2.876807075444901E1   7.664392375477567E1  -2.878886338780059E1   7.550451374110472E1  -1.382968491943377E-1   1.650828140996838E2  
 1.037388914548213E7    -1.530123029839297E-1   1.680868590918277E2  -2.887216787465492E1   7.521287248311349E1  -2.872350862140164E1   7.750330185599536E1  -7.287322968094707E-2   1.689272080891922E2  
 1.038166334847711E7     3.852693979356646E-3   1.689618549029878E2  -2.892608803562197E1   7.794315367547755E1  -2.877840262538389E1   7.643519209177262E1  -3.877566590005588E-2   1.675296685222253E2  
 1.038944337746766E7    -1.303007073078810E-1   1.690513141759721E2  -2.888854947749287E1   7.814109325754863E1  -2.892181757213429E1   8.010353938107087E1  -1.584368658426850E-2   1.712878553734785E2  
 1.039722923681978E7    -1.152538439425403E-1   1.676346856412055E2  -2.869430915738337E1   7.844862292176410E1  -2.882069203917677E1   7.702175996079460E1  -9.092187101447158E-2   1.677418189522076E2  
 1.040502093090276E7    -1.653378439001348E-1   1.689270959235806E2  -2.888065326970739E1   7.661846599209899E1  -2.887354271117395E1   7.785596067832856E1  -1.112324209008748E-1   1.704281646524808E2  
 1.041281846408915E7    -1.347931824665867E-1   1.725890663523071E2  -2.882738005545719E1   7.847887384223684E1  -2.882132063843192E1   7.944750011750499E1  -1.197844021577748E-1   1.689455174543845E2  
 1.042062184075478E7    -7.905664346521896E-2   1.725725316323140E2  -2.889513830852089E1   7.763824538104535E1  -2.872703391764342E1   7.955346702814555E1  -8.225960384897373E-2   1.694964702167258E2  
 1.042843106527876E7    -1.096155155969576E-1   1.712100779658099E2  -2.878446729363235E1   7.858475996313344E1  -2.888923789257858E1   7.783744326108688E1  -1.683390942294784E-1   1.693362034753638E2  
 1.043624614204348E7    -4.992275208241280E-2   1.703717141531264E2  -2.888617737854165E1   7.740558335430268E1  -2.884439786529131E1   7.475744568771953E1  -1.888731433165963E-1   1.668970904137400E2  
 1.044406707543461E7    -7.073760377052038E-2   1.652041897388912E2  -2.863294577956746E1   7.690870461020917E1  -2.860837662967019E1   7.990218190832324E1   5.136810481837301E-2   1.674637388845203E2  
 1.045189386984112E7    -9.931452034932649E-2   1.700700297741593E2  -2.870165154683719E1   7.951261963994880E1  -2.874687282423714E1   7.939591783209734E1  -1.088350384606385E-1   1.681954212303716E2  
 1.045972652965526E7    -1.627491149207310E-1   1.681121296916585E2  -2.879412787009927E1   7.821341009085181E1  -2.885203258167834E1   7.978163180039574E1  -9.917342975282020E-2   1.695057536653390E2  
 1.046756505927256E7    -6.185042272315265E-2   1.685961015840684E2  -2.882674291330535E1   7.797505814703516E1  -2.860110228159552E1   7.719960531400754E1  -6.859599374490501E-2   1.673811413168315E2  
 1.047540946309187E7    -9.820350119936140E-2   1.694446529467416E2  -2.883647107917060E1   7.920236237831938E1  -2.888387610937721E1   7.722580284755244E1  -7.915978893206707E-2   1.679866417461637E2  
 1.048325974551532E7    -1.409242586036617E-1   1.703369359144802E2  -2.879484287639675E1   8.014402336365887E1  -2.879689917260394E1   7.639822094886921E1  -1.089050868052508E-1   1.670978024900271E2  
 1.049111591094834E7    -5.870634754882383E-2   1.693375039665722E2  -2.878933256684263E1   7.941441134619855E1  -2.857304496280464E1   7.512892035918077E1  -8.676768634947236E-2   1.660930120055719E2  
 1.049897796379967E7    -1.792222002966616E-1   1.677195854104576E2  -2.870724110029767E1   7.778292970984171E1  -2.875715417302152E1   7.976288229955117E1  -1.590445271363730E-1   1.700109971911451E2  
 1.050684590848133E7    -8.429465266078008E-2   1.686636584083002E2  -2.869694149500356E1   7.868195999595430E1  -2.884253560959627E1   7.824927566026976E1  -8.928755156816584E-2   1.699056952568447E2  
 1.051471974940868E7    -1.524706499806437E-1   1.666530426297262E2  -2.883197110606897E1   7.656472414488191E1  -2.867098672847676E1   7.801635193232396E1  -1.311391478120579E-1   1.691447737222999E2  
 1.052259949100037E7    -3.412649638655359E-2   1.695506181037204E2  -2.868764132351943E1   7.857938908518858E1  -2.864075324980511E1   7.855794439757099E1  -1.663558685588176E-1   1.689178242538862E2  
 1.053048513767835E7    -1.409334803602340E-1   1.674753699803207E2  -2.884818925624667E1   7.549127969663694E1  -2.860051802868142E1   7.949663296547543E1   1.497492637311217E-2   1.680910062456066E2  
 1.053837669386792E7    -1.686064840766127E-2   1.698661225420185E2  -2.854652874350453E1   7.787934710713031E1  -2.877555254466940E1   7.712716062829693E1   1.681157718329353E-2   1.664021586024527E2  
 1.054627416399766E7    -1.385130952233644E-1   1.662410915574309E2  -2.870549510566006E1   7.784365591915017E1  -2.858525360584922E1   7.559996113303437E1  -1.186096095249483E-1   1.661951138640868E2  
 1.055417755249948E7    -2.297969334378690E-1   1.661915024182892E2  -2.867718128653899E1   7.506945024057973E1  -2.866732397124863E1   7.836173833700134E1  -4.121704306843216E-3   1.678532434866749E2  
 1.056208686380863E7    -1.298166651216042E-1   1.696749454534653E2  -2.861947656985796E1   7.786747041305779E1  -2.880998737913853E1   7.562060515466925E1  -2.298042050415498E-1   1.679299930627534E2  
 1.057000210236365E7    -1.684970216038812E-1   1.682239729759007E2  -2.881838724181651E1   7.849217321984706E1  -2.863084948507266E1   7.893810148283941E1  -1.596303152646509E-1   1.683790693131016E2  
 1.057792327260643E7    -1.214303869753458E-1   1.705886824917272E2  -2.873392171354757E1   7.864027135093129E1  -2.876138504694808E1   7.754411550163582E1  -2.392962975749699E-1   1.693967365426892E2  
 1.058585037898219E7    -1.151111983517692E-1   1.666332636155973E2  -2.874252024809296E1   7.537105461795592E1  -2.870864173568887E1   7.573095701619245E1  -1.692908114188694E-1   1.667319593217361E2  
 1.059378342593947E7    -7.325845511059763E-2   1.672663171324973E2  -2.857446404301672E1   7.917036238939693E1  -2.870918158547060E1   7.909296082498999E1  -1.520409467485007E-1   1.714084982935829E2  
 1.060172241793014E7    -1.638130806953923E-1   1.700211750188338E2  -2.859894172070451E1   7.696014032486370E1  -2.870267665372119E1   8.138430994455399E1  -1.574652091605676E-1   1.707248431953958E2  
 1.060966735940942E7    -7.547406250266844E-2   1.695592909718143E2  -2.868260155762290E1   7.868384526390349E1  -2.861577369370396E1   7.812977117082846E1  -2.192843278412949E-1   1.698089005135474E2  
 1.061761825483586E7    -9.209000973801772E-2   1.672200397912299E2  -2.867670670203635E1   7.571250717934407E1  -2.848774774410692E1   7.797923646046363E1   6.642659428481188E-3   1.693014983459901E2  
 1.062557510867136E7    -8.153839446573466E-2   1.695780063813519E2  -2.881165065959581E1   7.676600903669709E1  -2.855927166805380E1   7.606371985719615E1  -1.241029071464053E-1   1.672991762481669E2  
 1.063353792538115E7    -1.936408488163701E-1   1.675917874306583E2  -2.866484517349039E1   7.653213591606928E1  -2.857279477606139E1   7.786316097479526E1  -1.176556644537077E-1   1.689999975197666E2  
 1.064150670943382E7    -1.288293661703273E-1   1.696211213058768E2  -2.876884380760635E1   7.647490082084330E1  -2.865119142874016E1   8.009237843210552E1  -8.141483649004837E-2   1.700313488018523E2  
 1.064948146530131E7    -1.808313392584504E-1   1.666196196127751E2  -2.862871077615333E1   7.884905862539117E1  -2.852332501841936E1   7.991861427808878E1  -1.061795460879593E-1   1.697940388489274E2  
 1.065746219745889E7    -1.582130139292538E-1   1.690827036042923E2  -2.862141440402038E1   7.680352124986493E1  -2.876259134223882E1   7.648208073262715E1   1.932398862388967E-4   1.687951716994454E2  
 1.066544891038520E7    -1.326353076493939E-1   1.671230461536180E2  -2.854009958193660E1   7.731859269931915E1  -2.851764969781138E1   7.847424739778101E1  -8.196898312077440E-2   1.695322399313635E2  
 1.067344160856224E7    -3.801420178555940E-2   1.712854847015690E2  -2.851514133776336E1   7.950074594953759E1  -2.860375393384249E1   7.895747199798461E1  -1.618264942739474E-1   1.688118742187786E2  
 1.068144029647536E7    -6.802911793830221E-2   1.714294264486056E2  -2.857736730697090E1   7.871792827552173E1  -2.852755830492113E1   7.729439412239285E1  -1.608824516227202E-1   1.681947414100924E2  
 1.068944497861327E7    -1.446873535535092E-1   1.682312370347401E2  -2.862706928506954E1   7.822295614361940E1  -2.850087217245308E1   7.710453956485495E1  -6.463806054076471E-2   1.660997497444229E2  
 1.069745565946806E7    -1.048862480349105E-1   1.686950425817778E2  -2.869192647158165E1   7.645617620101787E1  -2.861718101410962E1   7.794683694241547E1  -1.764937304619005E-1   1.685423609147437E2  
 1.070547234353516E7    -1.368103143764917E-2   1.677400125047815E2  -2.838870448774001E1   7.819666675059740E1  -2.853963768311521E1   7.936963605146907E1  -1.153877755770401E-1   1.705314665594731E2  
 1.071349503531339E7    -1.618928687898681E-1   1.689772920923753E2  -2.862215718948398E1   7.730884020760682E1  -2.862043112918474E1   7.576566153131523E1  -1.926852551676503E-1   1.659294006242847E2  
 1.072152373930494E7    -3.618361987894010E-3   1.700128172601448E2  -2.848420268100183E1   7.807315371823330E1  -2.858983434056309E1   7.720613015630023E1  -1.056302068205462E-1   1.682358752133977E2  
 1.072955846001537E7    -7.763040156665918E-2   1.683030689868658E2  -2.858366974706864E1   7.863137317512697E1  -2.864014844781767E1   7.806823061626328E1  -6.798602783067412E-2   1.693778669134558E2  
 1.073759920195360E7    -1.680572008680678E-1   1.654614762433254E2  -2.850639249610794E1   7.483745841036534E1  -2.852335746129647E1   7.698983378037957E1  -7.605795489975759E-2   1.681834111764505E2  
 1.074564596963195E7    -8.262288222510771E-2   1.682037312396389E2  -2.869645684685953E1   8.056111416937718E1  -2.855450313713309E1   7.656265434959344E1  -8.911197824512626E-2   1.695136349638451E2  
 1.075369876756613E7    -3.617714597022590E-2   1.688242674949608E2  -2.846981437546174E1   7.951947557743229E1  -2.867867068228254E1   7.717201851425530E1  -9.523157747270247E-2   1.688522955681895E2  
