#  HZ   S   DB   R     50.0 
! Rohde & Schwarz ZVL 
! 
! 
! 
 1.000000000000000E7    -1.581834752320252E-1   1.664954543506590E2  -2.896888836567658E1   7.675535983072336E1  -2.915956710473846E1   7.374341399181239E1  -1.468158164520626E-1   1.660195513140867E2  
 1.000749401009202E7    -2.670790335827786E-1   1.688235355924237E2  -2.924949179496333E1   7.670297244332984E1  -2.921071453559964E1   7.824491236177548E1  -1.236794683407573E-1   1.697349087255807E2  
 1.001499363620277E7    -1.678681085416009E-1   1.669114317330179E2  -2.906759234757691E1   7.854450803265418E1  -2.905086097763044E1   7.843211038166868E1  -1.372390983316921E-1   1.667926396907186E2  
 1.002249888254090E7    -1.466084153301822E-1   1.679136043232569E2  -2.913460322482317E1   7.919732678923008E1  -2.913728173146840E1   7.945463509004220E1  -9.949435548775334E-2   1.713530666516750E2  
 1.003000975331820E7     5.010294695715198E-3   1.682618062803090E2  -2.913056096613363E1   8.035655157820094E1  -2.929872485391596E1   7.804506539538109E1  -1.717704656755291E-1   1.737762052938869E2  
 1.003752625274965E7    -1.026457841920859E-1   1.700871951354087E2  -2.918364758468842E1   7.942555297942732E1  -2.922251105979368E1   7.785659901159529E1  -1.812818296951386E-1   1.702882880920582E2  
 1.004504838505336E7    -1.249231837786226E-1   1.708061168962969E2  -2.915892404782747E1   7.769213587491909E1  -2.909099507035991E1   7.652545228878041E1  -1.075689882996192E-1   1.690061495957719E2  
 1.005257615445060E7    -1.306373854754937E-1   1.691642930784900E2  -2.914902247052875E1   7.818725757572015E1  -2.924494318995091E1   7.958606774758236E1  -1.836660643092340E-1   1.717163188655345E2  
 1.006010956516583E7    -9.578873538056446E-2   1.677262981105301E2  -2.938134553753105E1   7.638983340200750E1  -2.899686340709329E1   7.697206116039645E1  -3.974598878762536E-2   1.691908642379769E2  
 1.006764862142665E7    -1.186975067383649E-1   1.681317775948681E2  -2.919352212562231E1   7.855230707648107E1  -2.920757485568443E1   7.912533347821061E1  -5.430793215350847E-2   1.705847518887318E2  
 1.007519332746385E7    -1.399815696131569E-1   1.668288631276534E2  -2.907086651147439E1   7.574083687425552E1  -2.900897168059342E1   7.548157281767637E1  -1.976643776145742E-1   1.676383919651692E2  
 1.008274368751136E7    -1.130885780980271E-1   1.679702195346558E2  -2.907897272077957E1   7.818178241943619E1  -2.907872395819626E1   7.850916113981624E1  -1.190849992940820E-1   1.693021559589478E2  
 1.009029970580631E7    -9.993325377782011E-2   1.711696245790948E2  -2.899425930811631E1   8.023106724383372E1  -2.903269452704258E1   7.503455878382961E1  -1.358158517819599E-1   1.666872793748648E2  
 1.009786138658899E7    -1.062750377319343E-1   1.679166413400125E2  -2.914360389022368E1   7.749772268174520E1  -2.911487695838689E1   7.640679475571035E1  -1.859658898496266E-1   1.696955973299119E2  
 1.010542873410289E7    -1.269795796418680E-1   1.669451579256009E2  -2.915370425288025E1   7.842163160779180E1  -2.903616226220434E1   7.758448804854973E1  -9.577454119248313E-2   1.698378396727527E2  
 1.011300175259465E7    -1.813723527605442E-1   1.691616526096090E2  -2.904252627297308E1   7.959926290051379E1  -2.915562738529475E1   7.883513359359839E1  -1.870424980328676E-1   1.701356482953166E2  
 1.012058044631411E7    -1.787782683462509E-1   1.702380200575654E2  -2.898510972830825E1   7.738296870138191E1  -2.913879496167844E1   7.886519973630654E1  -6.521734354185524E-2   1.694411640203099E2  
 1.012816481951429E7    -2.767581820147094E-2   1.689256309089413E2  -2.901640712743215E1   7.855244852706680E1  -2.892647119530319E1   7.816354999089994E1  -2.079031511310570E-1   1.690032334433411E2  
 1.013575487645140E7    -1.767151005553228E-1   1.684019448471769E2  -2.900467461828284E1   7.688506725337246E1  -2.909452909167442E1   7.711789773627754E1  -8.814687209700102E-2   1.662587783251711E2  
 1.014335062138484E7    -1.099956102099712E-1   1.683294929002121E2  -2.894351497096997E1   7.798550636345490E1  -2.891767456654487E1   7.941365611551198E1   4.928283349233266E-3   1.671970941159995E2  
 1.015095205857720E7    -2.123575547695872E-1   1.692809574724107E2  -2.906182879674851E1   7.743800573061567E1  -2.903407079841003E1   7.629450941066347E1  -9.708619427008680E-2   1.678535282939087E2  
 1.015855919229426E7    -1.614347938686776E-1   1.684788823225819E2  -2.899256669804844E1   7.829338925300073E1  -2.911225013721732E1   7.849415651302788E1  -1.251812430650426E-1   1.687496700752759E2  
 1.016617202680501E7    -1.632131020080671E-1   1.678594520749683E2  -2.896777885789580E1   7.818956090538963E1  -2.898331760400249E1   7.547672145957274E1  -2.068767584107396E-1   1.672210474667706E2  
 1.017379056638162E7    -1.670321240195388E-1   1.702673835309159E2  -2.891441248157385E1   7.825017478185070E1  -2.894795995144450E1   7.644802009477765E1  -1.086986165170357E-1   1.708194438518033E2  
 1.018141481529949E7    -1.259511355582794E-1   1.695606560801324E2  -2.900669900494923E1   7.884043793077966E1  -2.909328342011972E1   7.783472023036281E1  -1.080777976409637E-1   1.692676377039580E2  
 1.018904477783718E7    -4.983099689003542E-2   1.708242101467648E2  -2.883056618886964E1   7.986106360604049E1  -2.912750401151718E1   7.619781880561554E1  -2.382404877675414E-1   1.677330849739078E2  
 1.019668045827650E7    -1.104280594449377E-1   1.683029975198766E2  -2.893271956332937E1   7.616900878317222E1  -2.922301036461077E1   7.598923325548319E1  -2.484412671803458E-1   1.656525451178942E2  
 1.020432186090244E7    -1.990574029715981E-2   1.685795135274175E2  -2.889289049529835E1   7.850145700432664E1  -2.897827989167824E1   7.713203445961109E1  -8.209093848952012E-2   1.679138717482841E2  
 1.021196899000323E7    -1.098510670442654E-1   1.703407723511996E2  -2.903460318887288E1   7.889236870400968E1  -2.901828833891060E1   8.078748093688567E1  -5.015012046989789E-2   1.710171314984661E2  
 1.021962184987028E7    -2.015373963380683E-1   1.680119323077755E2  -2.911982111755286E1   7.698732072235629E1  -2.884647269998024E1   7.687182504886195E1  -1.117510040642193E-1   1.688344215404941E2  
 1.022728044479824E7    -1.129519834791071E-1   1.683459412584353E2  -2.891850316930412E1   7.788455707314272E1  -2.882123504317274E1   7.732147797334913E1  -1.136449106179261E-1   1.678619001130104E2  
 1.023494477908497E7    -1.544414979400270E-1   1.684977610583012E2  -2.906726903413386E1   7.799686496739321E1  -2.903959505339275E1   7.846464861147810E1  -7.314985877124661E-2   1.681890453537207E2  
 1.024261485703155E7    -1.033379212764706E-1   1.701541984751541E2  -2.887374053796341E1   7.922863933221146E1  -2.898298599513761E1   7.650002627126968E1  -1.805737356525222E-1   1.682202235908967E2  
 1.025029068294228E7    -1.250326493178479E-1   1.682341527228245E2  -2.902629471496481E1   7.880219497594094E1  -2.897793234618042E1   7.510755604252421E1  -8.047926191162698E-2   1.693292451423062E2  
 1.025797226112469E7    -4.130540909083022E-2   1.688218495124228E2  -2.912863425918820E1   7.653878664669954E1  -2.897297902589717E1   8.011718222194585E1  -1.243456650715982E-1   1.707318807596865E2  
 1.026565959588955E7    -6.860370359133639E-2   1.680074288811593E2  -2.872251311029995E1   7.853946339536191E1  -2.895519893171727E1   7.829418865738167E1  -1.014274075041025E-1   1.682972927807411E2  
 1.027335269155083E7    -1.360560963214283E-1   1.701020114004823E2  -2.886659665267172E1   7.789450326661785E1  -2.896894630828915E1   7.774169263790128E1  -1.145745522351212E-1   1.675555629855892E2  
 1.028105155242577E7    -1.177684553349568E-1   1.685176379227255E2  -2.896721563106570E1   7.668236750703230E1  -2.887266752718879E1   7.692352428762598E1  -1.458368269166384E-1   1.688772501686983E2  
 1.028875618283482E7    -1.015700402574752E-1   1.723086168433975E2  -2.885237602692994E1   8.147005431682891E1  -2.909215677380990E1   7.894413656632683E1  -1.360705415255118E-2   1.704875397744474E2  
 1.029646658710168E7    -6.189348874710141E-2   1.689352654127003E2  -2.888010963337269E1   7.849690051266127E1  -2.876483371226549E1   7.821004052197900E1  -9.569466448003101E-2   1.693656073757871E2  
 1.030418276955327E7    -1.380008933872893E-1   1.689388511897702E2  -2.903452725453785E1   7.834662098844201E1  -2.888461889981133E1   7.920175487786543E1  -2.444426628285461E-2   1.709236930657638E2  
 1.031190473451978E7    -1.784752018780592E-1   1.721259973883631E2  -2.901162709119631E1   7.980045741763017E1  -2.898722468298306E1   7.949265709570295E1  -1.146039908970819E-1   1.705418289184909E2  
 1.031963248633463E7    -9.219065471239023E-2   1.686163081836099E2  -2.889216457495818E1   7.746590386572115E1  -2.893112078615566E1   7.925071705148831E1  -6.477287491139080E-2   1.708027946207993E2  
 1.032736602933448E7    -1.210805272341948E-1   1.674257228664278E2  -2.886336390607737E1   7.729704292621133E1  -2.892603892613425E1   7.918284665506616E1  -1.007005158288185E-1   1.697920451811414E2  
 1.033510536785927E7    -1.726674502647576E-1   1.696468696376792E2  -2.863224976011066E1   7.963917545766087E1  -2.886159415350934E1   7.774775373504406E1  -3.784391243448061E-2   1.677651768776105E2  
 1.034285050625216E7    -1.257569035301029E-1   1.688472331506745E2  -2.870323200519648E1   7.872482384155735E1  -2.897424803116959E1   7.730260438501118E1  -1.334023378390545E-1   1.691355769156602E2  
 1.035060144885957E7    -1.551421215494884E-1   1.692098940789768E2  -2.889397502317621E1   7.823438838600261E1  -2.893607755986582E1   8.025974092520090E1  -1.523006817079345E-1   1.716506158597158E2  
 1.035835820003120E7    -2.321926600113962E-1   1.683989066849975E2  -2.897652261314681E1   7.771605791204208E1  -2.905417789291552E1   7.845168103149456E1  -1.834693760732629E-1   1.694019691957504E2  
 1.036612076411999E7    -1.650491801445313E-1   1.685814587977619E2  -2.889731482797666E1   7.557903341975191E1  -2.889643418648184E1   7.703878585421180E1  -1.032308546313411E-1   1.667574879308102E2  
 1.037388914548213E7    -1.198243915026570E-1   1.669003435338772E2  -2.888753609078989E1   7.679698804295882E1  -2.886974388382487E1   7.812499057869704E1  -2.707010495326030E-2   1.715692688386636E2  
 1.038166334847711E7    -3.062806259293511E-2   1.696197095816196E2  -2.886093432378867E1   7.891919269454822E1  -2.884814356106894E1   7.754658942180784E1  -1.493953357541354E-1   1.685720375360976E2  
 1.038944337746766E7    -2.296357460518767E-1   1.664389640228736E2  -2.892735840828079E1   7.506222672227240E1  -2.885026191250477E1   7.901577663907899E1  -1.145607729174468E-1   1.709626650722759E2  
 1.039722923681978E7    -1.159243632855766E-1   1.707265465962755E2  -2.876965775234874E1   7.750100986162916E1  -2.886783879800840E1   7.740783756487240E1  -1.754600123864494E-1   1.664096563640159E2  
 1.040502093090276E7    -1.002636621716789E-1   1.684809490041556E2  -2.881446288630568E1   7.711746060944654E1  -2.893523751225717E1   7.914989883645325E1   3.823290585208052E-2   1.695682618942649E2  
 1.041281846408915E7    -1.422080359881359E-1   1.678219467720359E2  -2.891960478096907E1   7.549409264184399E1  -2.874719894343118E1   7.526893665977079E1  -1.477552481866596E-1   1.655563639634381E2  
 1.042062184075478E7    -1.710320450410675E-1   1.677897691141416E2  -2.875233200588230E1   7.618587339285000E1  -2.893765827650051E1   7.844732599212404E1  -8.421453289834675E-2   1.692173812950185E2  
 1.042843106527876E7    -8.610153110951975E-2   1.672237611716204E2  -2.878566402801044E1   7.869256580109473E1  -2.872544986062390E1   7.720133531991348E1  -1.052016842198787E-1   1.681246716568898E2  
 1.043624614204348E7    -9.820144806424445E-2   1.712467744940216E2  -2.883306913635418E1   7.952272617667416E1  -2.878119566941743E1   7.691985451020574E1  -2.512170578446984E-2   1.675809798207374E2  
 1.044406707543461E7    -1.404277742532210E-1   1.699618188352816E2  -2.902494526391588E1   7.798840171349673E1  -2.899466726473967E1   7.553191525164552E1  -1.513901252893107E-1   1.687147531528003E2  
 1.045189386984112E7    -9.097608796156798E-2   1.664357916875690E2  -2.877503560474930E1   7.604745724185840E1  -2.882595160136508E1   7.652666868007933E1  -1.375570646126537E-1   1.662904960774467E2  
 1.045972652965526E7    -6.209690960797964E-2   1.665740323275834E2  -2.857151389748467E1   7.657341429048324E1  -2.884857413980087E1   7.786495566945021E1  -5.083572681257290E-2   1.687157541423630E2  
 1.046756505927256E7    -1.215794469618809E-1   1.670839830356154E2  -2.870633947753774E1   7.627125291841321E1  -2.884880252487917E1   7.825332688475997E1  -1.252889463759822E-1   1.685158919533153E2  
 1.047540946309187E7    -5.836737724628786E-2   1.701431549532273E2  -2.881512823691253E1   7.757146844657443E1  -2.897537930859830E1   8.065833690331601E1  -8.222022342143692E-2   1.717912407856293E2  
 1.048325974551532E7    -1.119595076890783E-1   1.682445077604635E2  -2.873780628665258E1   7.856230702428057E1  -2.875926249568366E1   7.847991656707127E1  -1.824785249272181E-1   1.686837814142129E2  
 1.049111591094834E7    -8.366920419796528E-2   1.690539275407806E2  -2.874264445881952E1   7.748096007098843E1  -2.866110429563018E1   7.921547190213320E1  -2.851763620373873E-2   1.700012039202264E2  
 1.049897796379967E7    -1.846260179504857E-1   1.694929816192909E2  -2.876474148628719E1   7.785612243682404E1  -2.850954848617022E1   7.749549402872600E1  -9.188482640760921E-2   1.671555048438299E2  
 1.050684590848133E7    -1.134278144392774E-1   1.663712801130656E2  -2.866484779226294E1   7.773394208251548E1  -2.891297769887897E1   7.715176324283718E1  -9.518582022681534E-2   1.684082452540950E2  
 1.051471974940868E7    -1.003913665386464E-1   1.677726762980713E2  -2.878004761762786E1   7.483867310735273E1  -2.871388833307588E1   7.639932804216933E1  -8.817470684684689E-2   1.670019336291737E2  
 1.052259949100037E7    -1.432278920455204E-1   1.644613796146439E2  -2.865433138702437E1   7.650060125679767E1  -2.861027891047565E1   7.632602998056679E1  -1.003172174291617E-1   1.667518732264891E2  
 1.053048513767835E7    -1.199829823380765E-1   1.698707477810685E2  -2.875002266616060E1   7.716453121872560E1  -2.891583160301895E1   7.537826817434363E1  -1.876259727197097E-1   1.677214467681243E2  
 1.053837669386792E7    -1.994293569568793E-2   1.693760839298243E2  -2.859416685667286E1   7.981525963812601E1  -2.860764428955172E1   7.737135974287388E1  -6.423590866487383E-2   1.677796944931205E2  
 1.054627416399766E7    -1.442343125134112E-1   1.672444253129513E2  -2.875856339821755E1   7.650817479882281E1  -2.859307689537967E1   7.621416726055168E1  -9.016655298440138E-2   1.673367901540056E2  
 1.055417755249948E7    -1.796278262856311E-1   1.678242249409022E2  -2.880392860511461E1   7.775000229478418E1  -2.883668980684204E1   7.626233582953159E1  -2.027990596621311E-1   1.708124440980969E2  
 1.056208686380863E7    -1.698335211598392E-1   1.666206098124856E2  -2.875344595080302E1   7.649011403564289E1  -2.865052632687315E1   7.439522627761754E1  -1.292312861019958E-1   1.654289096841590E2  
 1.057000210236365E7    -2.318971080160057E-1   1.678327805966063E2  -2.855767411105958E1   7.755454087288047E1  -2.881090166691318E1   7.511984697194234E1  -2.497329607693939E-2   1.672272596392944E2  
 1.057792327260643E7    -1.033225991506225E-1   1.692526329048493E2  -2.871154172179054E1   7.743962282880378E1  -2.864356994736511E1   7.670602799609785E1  -8.381349939839211E-2   1.694300022975025E2  
 1.058585037898219E7    -1.530794777370771E-1   1.682161708743659E2  -2.864666115961288E1   8.017102384546125E1  -2.865425725383305E1   7.717141894148658E1  -8.458007037011610E-2   1.688102108397742E2  
 1.059378342593947E7    -1.219547727959930E-1   1.675901662840305E2  -2.873745809883949E1   7.836798232209623E1  -2.878527186641544E1   7.829235867548958E1  -1.296414176115689E-1   1.711175512298207E2  
 1.060172241793014E7    -1.602593636041449E-1   1.690106174860417E2  -2.882583587691319E1   7.682736798387968E1  -2.885249671281978E1   7.922760059574883E1  -1.575131055426931E-1   1.716887873774683E2  
 1.060966735940942E7    -5.118086831829572E-2   1.701777266180709E2  -2.858414308654132E1   7.886417955429357E1  -2.863467330861777E1   7.594019778944411E1  -2.093313331987206E-1   1.664823405077678E2  
 1.061761825483586E7    -1.528746876779183E-1   1.659220552891907E2  -2.880288986547079E1   7.597504130454507E1  -2.866697520856837E1   7.695919288721888E1  -1.091380251595684E-1   1.679813044722492E2  
 1.062557510867136E7    -1.001963492952585E-1   1.676729231288512E2  -2.868447014045191E1   7.648056374483777E1  -2.860088096107485E1   7.979707846705058E1  -1.845440358427873E-1   1.691856394435040E2  
 1.063353792538115E7    -1.311559194564449E-1   1.671606917261892E2  -2.882857215585134E1   7.603540598515717E1  -2.867012284070078E1   7.864207527611441E1  -3.735890797444424E-2   1.677999645116637E2  
 1.064150670943382E7    -8.856729354336811E-2   1.681754832185251E2  -2.875745147877397E1   7.645616594696894E1  -2.854005043979285E1   7.807167205843818E1  -1.418005618189029E-1   1.710397116364022E2  
 1.064948146530131E7    -1.032650092457509E-1   1.678384876719058E2  -2.855627437226080E1   7.585989615103367E1  -2.873884672504656E1   7.573819639087971E1  -2.251563446163691E-1   1.667461521523390E2  
 1.065746219745889E7    -7.962954052848480E-2   1.696274546803489E2  -2.866884887428391E1   7.877275898886767E1  -2.870599190734453E1   7.721408411641959E1  -1.315453053727819E-1   1.697185784620089E2  
 1.066544891038520E7    -1.709987220626036E-1   1.686157204854185E2  -2.852516711332043E1   7.810175789781782E1  -2.858387438271317E1   7.660776328793652E1  -1.402978149435263E-1   1.675685792602905E2  
 1.067344160856224E7    -1.078424730163896E-1   1.671798721142152E2  -2.837919427801973E1   7.707671340838537E1  -2.871700753324289E1   7.694227632776644E1  -2.169585337906450E-1   1.697728892228229E2  
 1.068144029647536E7    -1.231563427910262E-1   1.692998855085418E2  -2.878981403120976E1   7.721993433768526E1  -2.883923023781881E1   7.808972606317298E1  -8.176674256509671E-2   1.702880378105893E2  
 1.068944497861327E7    -1.265340245004125E-1   1.669139116000727E2  -2.868631258340227E1   7.590477220644310E1  -2.864063774132780E1   7.896228264202998E1  -2.437498834122597E-1   1.690115593061555E2  
 1.069745565946806E7    -1.129276143068689E-1   1.682452240287219E2  -2.864884005352344E1   7.879257580876481E1  -2.873649135183804E1   7.834865670450344E1  -1.278992377394523E-1   1.705506520541736E2  
 1.070547234353516E7    -5.168939738451995E-2   1.674779323631407E2  -2.850484411409638E1   7.899975978481501E1  -2.874635843825548E1   7.642612708603950E1  -2.335402967920539E-1   1.675139266784491E2  
 1.071349503531339E7    -1.823276363018156E-1   1.648807376298102E2  -2.853614328593278E1   7.586594739764607E1  -2.855168175852932E1   7.712065266792878E1  -6.338332391464685E-2   1.690679043044010E2  
 1.072152373930494E7    -9.581909563028521E-2   1.698832619007008E2  -2.857705530249144E1   7.816255701254558E1  -2.856934029152786E1   7.812747525461820E1  -1.092562573959678E-1   1.695839918370748E2  
 1.072955846001537E7    -1.148883938889223E-1   1.708919506491668E2  -2.862520091394980E1   7.911993625983796E1  -2.863466583711356E1   7.724514873644623E1  -1.538120909561197E-1   1.696767372707653E2  
 1.073759920195360E7    -1.846823313406739E-1   1.652747963666885E2  -2.852737696280167E1   7.651552033792963E1  -2.846294935431498E1   7.843664208346937E1  -7.410712177688844E-2   1.686858690390327E2  
 1.074564596963195E7    -1.102361611771096E-2   1.683173033296167E2  -2.830072842163043E1   7.822321254965659E1  -2.853540074817495E1   7.875834928955601E1  -1.215535033469657E-1   1.683278431810893E2  
 1.075369876756613E7    -1.089564745138997E-1   1.705846122031601E2  -2.849233295964116E1   7.861296219180598E1  -2.867068096450673E1   7.652860187053344E1  -1.899342327024615E-1   1.677323315212935E2  
